time	V(out)	V(vin)
0.000000000000000e+00	5.631606e-01	1.000000e-01
8.500000000001069e-06	5.797749e-01	9.462434e-02
1.700000000000214e-05	5.949182e-01	8.930152e-02
2.550000000000321e-05	6.085905e-01	8.403152e-02
3.400000000000428e-05	6.207917e-01	7.881435e-02
4.250000000000534e-05	6.315219e-01	7.365001e-02
5.100000000000642e-05	6.407811e-01	6.853850e-02
5.950000000000746e-05	6.485693e-01	6.347983e-02
7.107142857143757e-05	6.567455e-01	5.673472e-02
8.264285714286768e-05	6.618958e-01	5.029841e-02
9.421428571429780e-05	6.640201e-01	4.417090e-02
1.057857142857279e-04	6.631186e-01	3.835218e-02
1.173571428571580e-04	6.591911e-01	3.284226e-02
1.289285714285881e-04	6.522377e-01	2.764113e-02
1.405000000000182e-04	6.422583e-01	2.274880e-02
1.499285714285909e-04	6.316812e-01	1.909951e-02
1.593571428571636e-04	6.189403e-01	1.576013e-02
1.687857142857363e-04	6.040358e-01	1.273066e-02
1.782142857143090e-04	5.869676e-01	1.001111e-02
1.876428571428816e-04	5.677357e-01	7.601479e-03
1.970714285714543e-04	5.463402e-01	5.501760e-03
2.065000000000270e-04	5.227810e-01	3.711957e-03
2.180714285714571e-04	4.905534e-01	2.000607e-03
2.296428571428872e-04	4.555861e-01	8.145191e-04
2.412142857143173e-04	4.178791e-01	1.536929e-04
2.527857142857474e-04	3.774324e-01	1.812872e-05
2.643571428571775e-04	3.342461e-01	4.078265e-04
2.759285714286077e-04	2.883200e-01	1.322786e-03
2.875000000000377e-04	2.396543e-01	2.763008e-03
2.927857142857527e-04	2.169130e-01	3.594809e-03
2.980714285714677e-04	1.938800e-01	4.530016e-03
3.033571428571827e-04	1.705554e-01	5.568631e-03
3.086428571428977e-04	1.469391e-01	6.710653e-03
3.139285714286126e-04	1.230312e-01	7.956082e-03
3.192142857143276e-04	9.883165e-02	9.304919e-03
3.245000000000426e-04	7.434045e-02	1.075716e-02
3.266428571429000e-04	6.438814e-02	1.137301e-02
3.287857142857575e-04	5.441591e-02	1.200463e-02
3.309285714286149e-04	4.442376e-02	1.265202e-02
3.330714285714724e-04	3.441168e-02	1.331518e-02
3.352142857143298e-04	2.437969e-02	1.399411e-02
3.373571428571872e-04	1.432777e-02	1.468881e-02
3.395000000000446e-04	4.255924e-03	1.539929e-02
3.429285714286165e-04	-1.189729e-02	1.656888e-02
3.463571428571884e-04	-2.804434e-02	1.777573e-02
3.497857142857603e-04	-4.418522e-02	1.901984e-02
3.532142857143322e-04	-6.031994e-02	2.030122e-02
3.566428571429041e-04	-7.644849e-02	2.161987e-02
3.600714285714759e-04	-9.257088e-02	2.297578e-02
3.635000000000478e-04	-1.086871e-01	2.436896e-02
3.720714285714775e-04	-1.490763e-01	2.803020e-02
3.806428571429073e-04	-1.886809e-01	3.187075e-02
3.892142857143369e-04	-2.275009e-01	3.589061e-02
3.977857142857667e-04	-2.655364e-01	4.008979e-02
4.063571428571964e-04	-3.027873e-01	4.446829e-02
4.149285714286261e-04	-3.392536e-01	4.902610e-02
4.235000000000558e-04	-3.749353e-01	5.376323e-02
4.329285714286284e-04	-4.126568e-01	5.914365e-02
4.423571428572012e-04	-4.483661e-01	6.461842e-02
4.517857142857738e-04	-4.820633e-01	7.018753e-02
4.612142857143465e-04	-5.137483e-01	7.585099e-02
4.706428571429192e-04	-5.434212e-01	8.160879e-02
4.800714285714919e-04	-5.710820e-01	8.746094e-02
4.895000000000645e-04	-5.967305e-01	9.340744e-02
4.962142857143512e-04	-6.133895e-01	9.764029e-02
5.029285714286377e-04	-6.287612e-01	1.018587e-01
5.096428571429244e-04	-6.428458e-01	1.060625e-01
5.163571428572109e-04	-6.556432e-01	1.102519e-01
5.230714285714976e-04	-6.671534e-01	1.144268e-01
5.297857142857842e-04	-6.773765e-01	1.185872e-01
5.365000000000708e-04	-6.863123e-01	1.227331e-01
5.483571428572152e-04	-6.986675e-01	1.300107e-01
5.602142857143597e-04	-7.068786e-01	1.370287e-01
5.720714285715041e-04	-7.109456e-01	1.437872e-01
5.839285714286485e-04	-7.108685e-01	1.502861e-01
5.957857142857930e-04	-7.066472e-01	1.565254e-01
6.076428571429374e-04	-6.982819e-01	1.625052e-01
6.195000000000818e-04	-6.857724e-01	1.682254e-01
6.339285714286551e-04	-6.646271e-01	1.746599e-01
6.483571428572284e-04	-6.388195e-01	1.803811e-01
6.627857142858019e-04	-6.083496e-01	1.853890e-01
6.772142857143752e-04	-5.732174e-01	1.896835e-01
6.916428571429485e-04	-5.334230e-01	1.932647e-01
7.060714285715219e-04	-4.889664e-01	1.961326e-01
7.205000000000952e-04	-4.398475e-01	1.982871e-01
7.300714285715251e-04	-4.057227e-01	1.992172e-01
7.396428571429549e-04	-3.706767e-01	1.997872e-01
7.492142857143848e-04	-3.347096e-01	1.999973e-01
7.587857142858146e-04	-2.978212e-01	1.998472e-01
7.683571428572444e-04	-2.600116e-01	1.993372e-01
7.779285714286742e-04	-2.212808e-01	1.984671e-01
7.875000000001041e-04	-1.816288e-01	1.972370e-01
7.915000000001046e-04	-1.650549e-01	1.966184e-01
7.955000000001052e-04	-1.484471e-01	1.959400e-01
7.995000000001057e-04	-1.318053e-01	1.952017e-01
8.035000000001062e-04	-1.151297e-01	1.944036e-01
8.075000000001067e-04	-9.842018e-02	1.935457e-01
8.115000000001073e-04	-8.167675e-02	1.926279e-01
8.155000000001078e-04	-6.489941e-02	1.916502e-01
8.195000000001083e-04	-4.812616e-02	1.906142e-01
8.235000000001089e-04	-3.139101e-02	1.895227e-01
8.275000000001094e-04	-1.469397e-02	1.883758e-01
8.315000000001099e-04	1.964981e-03	1.871735e-01
8.355000000001105e-04	1.858582e-02	1.859158e-01
8.395000000001110e-04	3.516857e-02	1.846027e-01
8.435000000001115e-04	5.171321e-02	1.832341e-01
8.523571428572555e-04	8.825087e-02	1.799928e-01
8.612142857143996e-04	1.241001e-01	1.765326e-01
8.700714285715436e-04	1.592609e-01	1.728535e-01
8.789285714286876e-04	1.937332e-01	1.689555e-01
8.877857142858317e-04	2.275171e-01	1.648386e-01
8.966428571429757e-04	2.606125e-01	1.605029e-01
9.055000000001198e-04	2.930195e-01	1.559482e-01
9.157857142858354e-04	3.293879e-01	1.504166e-01
9.260714285715511e-04	3.640926e-01	1.447355e-01
9.363571428572667e-04	3.971336e-01	1.389052e-01
9.466428571429824e-04	4.285111e-01	1.329254e-01
9.569285714286980e-04	4.582249e-01	1.267964e-01
9.672142857144137e-04	4.862750e-01	1.205179e-01
9.775000000001293e-04	5.126616e-01	1.140901e-01
9.835000000001301e-04	5.270738e-01	1.103353e-01
9.895000000001309e-04	5.407954e-01	1.065792e-01
9.955000000001317e-04	5.538262e-01	1.028217e-01
1.001500000000132e-03	5.661663e-01	9.906289e-02
1.007500000000133e-03	5.778157e-01	9.530274e-02
1.013500000000134e-03	5.887744e-01	9.154125e-02
1.019500000000135e-03	5.990424e-01	8.777842e-02
1.020500000000135e-03	6.006800e-01	8.715506e-02
1.031214285714422e-03	6.170557e-01	8.044119e-02
1.041928571428709e-03	6.309893e-01	7.388800e-02
1.052642857142996e-03	6.424808e-01	6.749547e-02
1.063357142857284e-03	6.515301e-01	6.126362e-02
1.074071428571571e-03	6.581373e-01	5.519244e-02
1.084785714285858e-03	6.623023e-01	4.928194e-02
1.095500000000145e-03	6.640252e-01	4.353210e-02
1.106071428571575e-03	6.631925e-01	3.812803e-02
1.116642857143005e-03	6.597226e-01	3.304861e-02
1.127214285714435e-03	6.536155e-01	2.829382e-02
1.137785714285865e-03	6.448714e-01	2.386368e-02
1.148357142857295e-03	6.334900e-01	1.975818e-02
1.158928571428725e-03	6.194716e-01	1.597733e-02
1.169500000000155e-03	6.028160e-01	1.252111e-02
1.178500000000156e-03	5.863715e-01	9.907842e-03
1.187500000000157e-03	5.679856e-01	7.598176e-03
1.196500000000158e-03	5.476581e-01	5.592114e-03
1.205500000000160e-03	5.253891e-01	3.889656e-03
1.214500000000161e-03	5.011786e-01	2.490802e-03
1.223500000000162e-03	4.750266e-01	1.395551e-03
1.232500000000163e-03	4.469331e-01	6.039045e-04
1.242214285714450e-03	4.143251e-01	1.239434e-04
1.251928571428737e-03	3.800303e-01	1.292144e-05
1.261642857143024e-03	3.440487e-01	2.708386e-04
1.271357142857311e-03	3.063803e-01	8.976948e-04
1.281071428571598e-03	2.670251e-01	1.893490e-03
1.290785714285885e-03	2.259832e-01	3.258225e-03
1.300500000000172e-03	1.832545e-01	4.991898e-03
1.304214285714458e-03	1.667304e-01	5.747046e-03
1.307928571428745e-03	1.500856e-01	6.552348e-03
1.311642857143031e-03	1.333199e-01	7.407804e-03
1.315357142857317e-03	1.164334e-01	8.313415e-03
1.319071428571603e-03	9.942609e-02	9.269181e-03
1.322785714285889e-03	8.229797e-02	1.027510e-02
1.326500000000176e-03	6.504904e-02	1.133117e-02
1.328928571428747e-03	5.373838e-02	1.204745e-02
1.331357142857319e-03	4.240650e-02	1.278376e-02
1.333785714285891e-03	3.105340e-02	1.354011e-02
1.336214285714463e-03	1.967908e-02	1.431650e-02
1.338642857143034e-03	8.283548e-03	1.511292e-02
1.341071428571606e-03	-3.133207e-03	1.592938e-02
1.343500000000178e-03	-1.457118e-02	1.676587e-02
1.349071428571607e-03	-4.092589e-02	1.876360e-02
1.354642857143037e-03	-6.717520e-02	2.085412e-02
1.360214285714466e-03	-9.331913e-02	2.303745e-02
1.365785714285895e-03	-1.193577e-01	2.531357e-02
1.371357142857324e-03	-1.452908e-01	2.768250e-02
1.376928571428754e-03	-1.711186e-01	3.014422e-02
1.382500000000183e-03	-1.968409e-01	3.269875e-02
1.393071428571613e-03	-2.453176e-01	3.781911e-02
1.403642857143043e-03	-2.919847e-01	4.315214e-02
1.414214285714473e-03	-3.368421e-01	4.869782e-02
1.424785714285903e-03	-3.798900e-01	5.445617e-02
1.435357142857333e-03	-4.211283e-01	6.042717e-02
1.445928571428763e-03	-4.605570e-01	6.661084e-02
1.456500000000192e-03	-4.981761e-01	7.300717e-02
1.463500000000193e-03	-5.214166e-01	7.728791e-02
1.470500000000194e-03	-5.433913e-01	8.159164e-02
1.477500000000195e-03	-5.641002e-01	8.591835e-02
1.484500000000196e-03	-5.835433e-01	9.026805e-02
1.491500000000197e-03	-6.017206e-01	9.464073e-02
1.498500000000198e-03	-6.186321e-01	9.903641e-02
1.505500000000199e-03	-6.342778e-01	1.034551e-01
1.514500000000200e-03	-6.523103e-01	1.091421e-01
1.523500000000201e-03	-6.679494e-01	1.147558e-01
1.532500000000203e-03	-6.811950e-01	1.202961e-01
1.541500000000204e-03	-6.920471e-01	1.257630e-01
1.550500000000205e-03	-7.005058e-01	1.311565e-01
1.559500000000206e-03	-7.065711e-01	1.364766e-01
1.568500000000207e-03	-7.102429e-01	1.417233e-01
1.582928571428781e-03	-7.105343e-01	1.499203e-01
1.597357142857354e-03	-7.051288e-01	1.575638e-01
1.611785714285927e-03	-6.940261e-01	1.646538e-01
1.626214285714501e-03	-6.772264e-01	1.711903e-01
1.640642857143074e-03	-6.547297e-01	1.771733e-01
1.655071428571648e-03	-6.265359e-01	1.826029e-01
1.669500000000221e-03	-5.926450e-01	1.874789e-01
1.681642857143080e-03	-5.602959e-01	1.909472e-01
1.693785714285938e-03	-5.254821e-01	1.938537e-01
1.705928571428797e-03	-4.882036e-01	1.961985e-01
1.718071428571656e-03	-4.484606e-01	1.979815e-01
1.730214285714514e-03	-4.062529e-01	1.992028e-01
1.742357142857373e-03	-3.615806e-01	1.998623e-01
1.754500000000232e-03	-3.144437e-01	1.999600e-01
1.761928571428805e-03	-2.851092e-01	1.997150e-01
1.769357142857377e-03	-2.554643e-01	1.992565e-01
1.776785714285949e-03	-2.255088e-01	1.985848e-01
1.784214285714522e-03	-1.952429e-01	1.976998e-01
1.791642857143094e-03	-1.646666e-01	1.966014e-01
1.799071428571667e-03	-1.337797e-01	1.952897e-01
1.806500000000239e-03	-1.025824e-01	1.937647e-01
1.809357142857382e-03	-9.061741e-02	1.931250e-01
1.812214285714525e-03	-7.865514e-02	1.924559e-01
1.815071428571669e-03	-6.669556e-02	1.917574e-01
1.817928571428812e-03	-5.473867e-02	1.910294e-01
1.820785714285955e-03	-4.278446e-02	1.902720e-01
1.823642857143098e-03	-3.083293e-02	1.894851e-01
1.826500000000242e-03	-1.888410e-02	1.886688e-01
1.829785714285956e-03	-5.159798e-03	1.876943e-01
1.833071428571671e-03	8.524681e-03	1.866836e-01
1.836357142857386e-03	2.216934e-02	1.856365e-01
1.839642857143100e-03	3.577418e-02	1.845533e-01
1.842928571428815e-03	4.933919e-02	1.834338e-01
1.846214285714530e-03	6.286438e-02	1.822780e-01
1.849500000000245e-03	7.634976e-02	1.810860e-01
1.859214285714532e-03	1.161077e-01	1.773240e-01
1.868928571428819e-03	1.549319e-01	1.733141e-01
1.878642857143106e-03	1.928224e-01	1.690562e-01
1.888357142857393e-03	2.297793e-01	1.645505e-01
1.898071428571680e-03	2.658026e-01	1.597969e-01
1.907785714285967e-03	3.008921e-01	1.547953e-01
1.917500000000254e-03	3.350480e-01	1.495459e-01
1.927071428571683e-03	3.673314e-01	1.441844e-01
1.936642857143113e-03	3.981076e-01	1.387137e-01
1.946214285714543e-03	4.273765e-01	1.331340e-01
1.955785714285973e-03	4.551382e-01	1.274451e-01
1.965357142857403e-03	4.813926e-01	1.216470e-01
1.974928571428833e-03	5.061397e-01	1.157399e-01
1.984500000000263e-03	5.293796e-01	1.097236e-01
1.991357142857406e-03	5.449117e-01	1.054078e-01
1.998214285714550e-03	5.595223e-01	1.011020e-01
2.005071428571694e-03	5.732114e-01	9.680610e-02
2.011928571428837e-03	5.859790e-01	9.252006e-02
2.018785714285981e-03	5.978251e-01	8.824391e-02
2.025642857143125e-03	6.087496e-01	8.397765e-02
2.032500000000269e-03	6.187527e-01	7.972127e-02
2.044500000000270e-03	6.338809e-01	7.240271e-02
2.056357142857415e-03	6.460103e-01	6.523517e-02
2.068214285714559e-03	6.550252e-01	5.835132e-02
2.080071428571704e-03	6.609254e-01	5.175116e-02
2.091928571428848e-03	6.637110e-01	4.543468e-02
2.103785714285993e-03	6.633819e-01	3.940189e-02
2.115642857143137e-03	6.599382e-01	3.365279e-02
2.127500000000282e-03	6.533799e-01	2.818737e-02
2.137214285714568e-03	6.454787e-01	2.404489e-02
2.146928571428855e-03	6.352904e-01	2.021745e-02
2.156642857143142e-03	6.228149e-01	1.670506e-02
2.166357142857430e-03	6.080523e-01	1.350772e-02
2.176071428571717e-03	5.910026e-01	1.062542e-02
2.185785714286004e-03	5.716658e-01	8.058174e-03
2.195500000000291e-03	5.500418e-01	5.805970e-03
2.207928571428863e-03	5.185755e-01	3.461219e-03
2.220357142857437e-03	4.838200e-01	1.720517e-03
2.232785714286010e-03	4.457753e-01	5.838618e-04
2.245214285714583e-03	4.044414e-01	5.125456e-05
2.257642857143156e-03	3.598183e-01	1.226950e-04
2.270071428571729e-03	3.119060e-01	7.981831e-04
2.282500000000302e-03	2.607045e-01	2.077719e-03
2.288214285714588e-03	2.364984e-01	2.872324e-03
2.293928571428875e-03	2.119265e-01	3.788704e-03
2.299642857143161e-03	1.869889e-01	4.826860e-03
2.305357142857448e-03	1.616856e-01	5.986792e-03
2.311071428571735e-03	1.360165e-01	7.268500e-03
2.316785714286021e-03	1.099817e-01	8.671983e-03
2.322500000000307e-03	8.358113e-02	1.019724e-02
2.324642857143165e-03	7.365521e-02	1.079799e-02
2.326785714286022e-03	6.370711e-02	1.141461e-02
2.328928571428880e-03	5.373684e-02	1.204712e-02
2.331071428571737e-03	4.374440e-02	1.269552e-02
2.333214285714594e-03	3.372978e-02	1.335979e-02
2.335357142857452e-03	2.369299e-02	1.403995e-02
2.337500000000309e-03	1.363402e-02	1.473598e-02
2.339928571428881e-03	2.215326e-03	1.554367e-02
2.342357142857453e-03	-9.208416e-03	1.637052e-02
2.344785714286025e-03	-2.063720e-02	1.721654e-02
2.347214285714596e-03	-3.207103e-02	1.808174e-02
2.349642857143168e-03	-4.350990e-02	1.896610e-02
2.352071428571740e-03	-5.495381e-02	1.986964e-02
2.354500000000312e-03	-6.640277e-02	2.079234e-02
2.362071428571741e-03	-1.022658e-01	2.380410e-02
2.369642857143171e-03	-1.376831e-01	2.696934e-02
2.377214285714600e-03	-1.726548e-01	3.028806e-02
2.384785714286030e-03	-2.071808e-01	3.376025e-02
2.392357142857460e-03	-2.412611e-01	3.738593e-02
2.399928571428889e-03	-2.748957e-01	4.116509e-02
2.407500000000319e-03	-3.080846e-01	4.509772e-02
2.417785714286034e-03	-3.520006e-01	5.067250e-02
2.428071428571750e-03	-3.937396e-01	5.639175e-02
2.438357142857466e-03	-4.333014e-01	6.225547e-02
2.448642857143181e-03	-4.706862e-01	6.826366e-02
2.458928571428897e-03	-5.058939e-01	7.441632e-02
2.469214285714613e-03	-5.389246e-01	8.071346e-02
2.479500000000328e-03	-5.697781e-01	8.715506e-02
2.487071428571758e-03	-5.905210e-01	9.191253e-02
2.494642857143187e-03	-6.096549e-01	9.666150e-02
2.502214285714617e-03	-6.271796e-01	1.014020e-01
2.509785714286047e-03	-6.430953e-01	1.061339e-01
2.517357142857476e-03	-6.574020e-01	1.108574e-01
2.524928571428906e-03	-6.700996e-01	1.155723e-01
2.532500000000335e-03	-6.811881e-01	1.202787e-01
2.544071428571765e-03	-6.946989e-01	1.274255e-01
2.555642857143195e-03	-7.042466e-01	1.343396e-01
2.567214285714626e-03	-7.098312e-01	1.410212e-01
2.578785714286056e-03	-7.114528e-01	1.474701e-01
2.590357142857486e-03	-7.091112e-01	1.536865e-01
2.601928571428916e-03	-7.028067e-01	1.596702e-01
2.613500000000346e-03	-6.925390e-01	1.654213e-01
2.628214285714634e-03	-6.733247e-01	1.722310e-01
2.642928571428921e-03	-6.491350e-01	1.783124e-01
2.657642857143209e-03	-6.199699e-01	1.836653e-01
2.672357142857497e-03	-5.858293e-01	1.882898e-01
2.687071428571784e-03	-5.467134e-01	1.921859e-01
2.701785714286072e-03	-5.026220e-01	1.953536e-01
2.716500000000360e-03	-4.535552e-01	1.977929e-01
2.726357142857504e-03	-4.189636e-01	1.988999e-01
2.736214285714648e-03	-3.833469e-01	1.996250e-01
2.746071428571792e-03	-3.467050e-01	1.999683e-01
2.755928571428936e-03	-3.090380e-01	1.999297e-01
2.765785714286081e-03	-2.703459e-01	1.995092e-01
2.775642857143224e-03	-2.306287e-01	1.987069e-01
2.785500000000369e-03	-1.898863e-01	1.975227e-01
2.789785714286084e-03	-1.721582e-01	1.968902e-01
2.794071428571799e-03	-1.543882e-01	1.961890e-01
2.798357142857514e-03	-1.365762e-01	1.954189e-01
2.802642857143228e-03	-1.187223e-01	1.945800e-01
2.806928571428943e-03	-1.008264e-01	1.936722e-01
2.811214285714658e-03	-8.288850e-02	1.926957e-01
2.815500000000373e-03	-6.490866e-02	1.916502e-01
2.819500000000373e-03	-4.813533e-02	1.906142e-01
2.823500000000374e-03	-3.140011e-02	1.895227e-01
2.827500000000374e-03	-1.470299e-02	1.883758e-01
2.831500000000375e-03	1.956030e-03	1.871735e-01
2.835500000000375e-03	1.857695e-02	1.859158e-01
2.839500000000376e-03	3.515976e-02	1.846027e-01
2.843500000000377e-03	5.170447e-02	1.832341e-01
2.852357142857521e-03	8.824231e-02	1.799928e-01
2.861214285714665e-03	1.240917e-01	1.765326e-01
2.870071428571809e-03	1.592526e-01	1.728535e-01
2.878928571428953e-03	1.937251e-01	1.689555e-01
2.887785714286097e-03	2.275092e-01	1.648386e-01
2.896642857143241e-03	2.606048e-01	1.605029e-01
2.905500000000385e-03	2.930120e-01	1.559482e-01
2.915785714286100e-03	3.293805e-01	1.504166e-01
2.926071428571816e-03	3.640853e-01	1.447355e-01
2.936357142857532e-03	3.971266e-01	1.389052e-01
2.946642857143247e-03	4.285042e-01	1.329254e-01
2.956928571428963e-03	4.582181e-01	1.267964e-01
2.967214285714679e-03	4.862685e-01	1.205179e-01
2.977500000000394e-03	5.126551e-01	1.140901e-01
2.985214285714681e-03	5.310812e-01	1.092484e-01
2.992928571428968e-03	5.483510e-01	1.044132e-01
3.000642857143254e-03	5.644645e-01	9.958473e-02
3.008357142857541e-03	5.794216e-01	9.476285e-02
3.016071428571828e-03	5.932225e-01	8.994758e-02
3.023785714286115e-03	6.058671e-01	8.513894e-02
3.031500000000401e-03	6.173555e-01	8.033693e-02
3.036642857143259e-03	6.243195e-01	7.717142e-02
3.041785714286117e-03	6.307278e-01	7.403782e-02
3.046928571428975e-03	6.365803e-01	7.093614e-02
3.052071428571833e-03	6.418770e-01	6.786637e-02
3.057214285714691e-03	6.466180e-01	6.482852e-02
3.062357142857549e-03	6.508032e-01	6.182258e-02
3.067500000000406e-03	6.544327e-01	5.884856e-02
3.068500000000406e-03	6.550702e-01	5.827673e-02
3.079785714286122e-03	6.608760e-01	5.187181e-02
3.091071428571838e-03	6.637710e-01	4.578067e-02
3.102357142857554e-03	6.637551e-01	4.000330e-02
3.113642857143269e-03	6.608285e-01	3.453970e-02
3.124928571428985e-03	6.549910e-01	2.938987e-02
3.136214285714701e-03	6.462427e-01	2.455382e-02
3.147500000000417e-03	6.345836e-01	2.003153e-02
3.156785714286132e-03	6.226043e-01	1.664425e-02
3.166071428571848e-03	6.085267e-01	1.356376e-02
3.175357142857564e-03	5.923506e-01	1.079004e-02
3.184642857143279e-03	5.740762e-01	8.323111e-03
3.193928571428994e-03	5.537033e-01	6.162961e-03
3.203214285714710e-03	5.312321e-01	4.309593e-03
3.212500000000426e-03	5.066624e-01	2.763008e-03
3.223642857143284e-03	4.741091e-01	1.366260e-03
3.234785714286143e-03	4.390809e-01	4.568703e-04
3.245928571429001e-03	4.015778e-01	3.483841e-05
3.257071428571860e-03	3.615999e-01	1.001644e-04
3.268214285714719e-03	3.191472e-01	6.528483e-04
3.279357142857577e-03	2.742196e-01	1.692890e-03
3.290500000000436e-03	2.268171e-01	3.220290e-03
3.295357142857580e-03	2.057468e-01	4.035897e-03
3.300214285714723e-03	1.844380e-01	4.938534e-03
3.305071428571867e-03	1.628907e-01	5.928200e-03
3.309928571429010e-03	1.411049e-01	7.004896e-03
3.314785714286153e-03	1.190806e-01	8.168622e-03
3.319642857143297e-03	9.681783e-02	9.419377e-03
3.324500000000440e-03	7.431652e-02	1.075716e-02
3.326642857143298e-03	6.436420e-02	1.137301e-02
3.328785714286155e-03	5.439196e-02	1.200463e-02
