uin1	V(uout1)	V(uout2)	abs(D(V(uout1)-V(uout2))/D(uin1))
-1.500000000000000e-01	9.966732e+00	1.120299e-01	2.573565e+00
-1.490000000000000e-01	9.965443e+00	1.133141e-01	2.675440e+00
-1.480000000000000e-01	9.964051e+00	1.147000e-01	2.805822e+00
-1.470000000000000e-01	9.962631e+00	1.161144e-01	2.890255e+00
-1.460000000000000e-01	9.961155e+00	1.175843e-01	3.003672e+00
-1.450000000000000e-01	9.959621e+00	1.191119e-01	3.121674e+00
-1.440000000000000e-01	9.958027e+00	1.206995e-01	3.244344e+00
-1.430000000000000e-01	9.956370e+00	1.223495e-01	3.371298e+00
-1.420000000000000e-01	9.954649e+00	1.240642e-01	3.504060e+00
-1.410000000000000e-01	9.952859e+00	1.258462e-01	3.641281e+00
-1.400000000000000e-01	9.951000e+00	1.276980e-01	3.784016e+00
-1.390000000000000e-01	9.949067e+00	1.296224e-01	3.932364e+00
-1.380000000000000e-01	9.947060e+00	1.316222e-01	4.085951e+00
-1.370000000000000e-01	9.944973e+00	1.337002e-01	4.246324e+00
-1.360000000000000e-01	9.942804e+00	1.358595e-01	4.412159e+00
-1.350000000000000e-01	9.940552e+00	1.381033e-01	4.584521e+00
-1.340000000000000e-01	9.938210e+00	1.404347e-01	4.763521e+00
-1.330000000000000e-01	9.935779e+00	1.428572e-01	4.949771e+00
-1.320000000000000e-01	9.933250e+00	1.453742e-01	5.142920e+00
-1.310000000000000e-01	9.930625e+00	1.479894e-01	5.343087e+00
-1.300000000000000e-01	9.927896e+00	1.507065e-01	5.551383e+00
-1.290000000000000e-01	9.925062e+00	1.535294e-01	5.767457e+00
-1.280000000000000e-01	9.922117e+00	1.564621e-01	5.991936e+00
-1.270000000000000e-01	9.919058e+00	1.595089e-01	6.224968e+00
-1.260000000000000e-01	9.915879e+00	1.626741e-01	6.466694e+00
-1.250000000000000e-01	9.912578e+00	1.659621e-01	6.717302e+00
-1.240000000000000e-01	9.909148e+00	1.693776e-01	6.977417e+00
-1.230000000000000e-01	9.905586e+00	1.729255e-01	7.248163e+00
-1.220000000000000e-01	9.901885e+00	1.766108e-01	7.528767e+00
-1.210000000000000e-01	9.898042e+00	1.804385e-01	7.819399e+00
-1.200000000000000e-01	9.894050e+00	1.844142e-01	8.121215e+00
-1.190000000000000e-01	9.889904e+00	1.885433e-01	8.434877e+00
-1.180000000000000e-01	9.885597e+00	1.928315e-01	8.760102e+00
-1.170000000000000e-01	9.881125e+00	1.972849e-01	9.096622e+00
-1.160000000000000e-01	9.876482e+00	2.019095e-01	9.446077e+00
-1.150000000000000e-01	9.871660e+00	2.067118e-01	9.808682e+00
-1.140000000000000e-01	9.866653e+00	2.116983e-01	1.018514e+01
-1.130000000000000e-01	9.861454e+00	2.168759e-01	1.057521e+01
-1.120000000000000e-01	9.856056e+00	2.222515e-01	1.097909e+01
-1.110000000000000e-01	9.850452e+00	2.278325e-01	1.139850e+01
-1.100000000000000e-01	9.844634e+00	2.336264e-01	1.183271e+01
-1.090000000000000e-01	9.838595e+00	2.396409e-01	1.228292e+01
-1.080000000000000e-01	9.832326e+00	2.458841e-01	1.274988e+01
-1.070000000000000e-01	9.825819e+00	2.523643e-01	1.323338e+01
-1.060000000000000e-01	9.819065e+00	2.590900e-01	1.373416e+01
-1.050000000000000e-01	9.812057e+00	2.660701e-01	1.425299e+01
-1.040000000000000e-01	9.804783e+00	2.733138e-01	1.479062e+01
-1.030000000000000e-01	9.797235e+00	2.808303e-01	1.534735e+01
-1.020000000000000e-01	9.789404e+00	2.886295e-01	1.592393e+01
-1.010000000000000e-01	9.781279e+00	2.967213e-01	1.652071e+01
-9.999999999999995e-02	9.772849e+00	3.051161e-01	1.713844e+01
-9.899999999999995e-02	9.764105e+00	3.138244e-01	1.777790e+01
-9.799999999999995e-02	9.755034e+00	3.228573e-01	1.843944e+01
-9.699999999999995e-02	9.745627e+00	3.322259e-01	1.912387e+01
-9.599999999999995e-02	9.735871e+00	3.419419e-01	1.983245e+01
-9.499999999999995e-02	9.725754e+00	3.520171e-01	2.056456e+01
-9.399999999999994e-02	9.715264e+00	3.624640e-01	2.132151e+01
-9.299999999999994e-02	9.704389e+00	3.732950e-01	2.210505e+01
-9.199999999999994e-02	9.693113e+00	3.845231e-01	2.291411e+01
-9.099999999999994e-02	9.681427e+00	3.961616e-01	2.374998e+01
-8.999999999999994e-02	9.669314e+00	4.082241e-01	2.461399e+01
-8.899999999999994e-02	9.656762e+00	4.207247e-01	2.550647e+01
-8.799999999999994e-02	9.643755e+00	4.336776e-01	2.642776e+01
-8.699999999999994e-02	9.630280e+00	4.470976e-01	2.737872e+01
-8.599999999999994e-02	9.616320e+00	4.609998e-01	2.836064e+01
-8.499999999999994e-02	9.601860e+00	4.753994e-01	2.937338e+01
-8.399999999999994e-02	9.586885e+00	4.903123e-01	3.041826e+01
-8.299999999999993e-02	9.571379e+00	5.057546e-01	3.149565e+01
-8.199999999999993e-02	9.555325e+00	5.217427e-01	3.260633e+01
-8.099999999999993e-02	9.538705e+00	5.382934e-01	3.375110e+01
-7.999999999999993e-02	9.521503e+00	5.554238e-01	3.493029e+01
-7.899999999999993e-02	9.503702e+00	5.731513e-01	3.614470e+01
-7.799999999999993e-02	9.485284e+00	5.914936e-01	3.739518e+01
-7.699999999999993e-02	9.466229e+00	6.104689e-01	3.868246e+01
-7.599999999999993e-02	9.446521e+00	6.300955e-01	4.000628e+01
-7.499999999999993e-02	9.426140e+00	6.503919e-01	4.136747e+01
-7.399999999999993e-02	9.405067e+00	6.713771e-01	4.276726e+01
-7.299999999999993e-02	9.383284e+00	6.930702e-01	4.420584e+01
-7.199999999999993e-02	9.360769e+00	7.154906e-01	4.568297e+01
-7.099999999999992e-02	9.337505e+00	7.386578e-01	4.719928e+01
-6.999999999999992e-02	9.313472e+00	7.625917e-01	4.875597e+01
-6.899999999999992e-02	9.288648e+00	7.873121e-01	5.035269e+01
-6.799999999999992e-02	9.263014e+00	8.128391e-01	5.198953e+01
-6.699999999999992e-02	9.236549e+00	8.391929e-01	5.366710e+01
-6.599999999999992e-02	9.209234e+00	8.663937e-01	5.538499e+01
-6.499999999999992e-02	9.181048e+00	8.944619e-01	5.714372e+01
-6.399999999999992e-02	9.151971e+00	9.234177e-01	5.894321e+01
-6.299999999999992e-02	9.121982e+00	9.532815e-01	6.078345e+01
-6.199999999999992e-02	9.091060e+00	9.840735e-01	6.266391e+01
-6.099999999999992e-02	9.059186e+00	1.015814e+00	6.458446e+01
-5.999999999999991e-02	9.026340e+00	1.048522e+00	6.654537e+01
-5.899999999999991e-02	8.992500e+00	1.082219e+00	6.854498e+01
-5.799999999999991e-02	8.957650e+00	1.116923e+00	7.058406e+01
-5.699999999999991e-02	8.921767e+00	1.152654e+00	7.266128e+01
-5.599999999999991e-02	8.884835e+00	1.189430e+00	7.477576e+01
-5.499999999999991e-02	8.846833e+00	1.227271e+00	7.692707e+01
-5.399999999999991e-02	8.807745e+00	1.266194e+00	7.911384e+01
-5.299999999999991e-02	8.767551e+00	1.306217e+00	8.133548e+01
-5.199999999999991e-02	8.726236e+00	1.347357e+00	8.358997e+01
-5.099999999999991e-02	8.683784e+00	1.389629e+00	8.587658e+01
-4.999999999999991e-02	8.640177e+00	1.433050e+00	8.819419e+01
-4.899999999999990e-02	8.595401e+00	1.477635e+00	9.054053e+01
-4.799999999999990e-02	8.549442e+00	1.523397e+00	9.291375e+01
-4.699999999999990e-02	8.502288e+00	1.570349e+00	9.531260e+01
-4.599999999999990e-02	8.453925e+00	1.618505e+00	9.773487e+01
-4.499999999999990e-02	8.404343e+00	1.667874e+00	1.001787e+02
-4.399999999999990e-02	8.353530e+00	1.718467e+00	1.026411e+02
-4.299999999999990e-02	8.301479e+00	1.770293e+00	1.051198e+02
-4.199999999999990e-02	8.248182e+00	1.823359e+00	1.076131e+02
-4.099999999999990e-02	8.193632e+00	1.877672e+00	1.101178e+02
-3.999999999999990e-02	8.137824e+00	1.933236e+00	1.126306e+02
-3.899999999999990e-02	8.080755e+00	1.990056e+00	1.151495e+02
-3.799999999999989e-02	8.022422e+00	2.048133e+00	1.176710e+02
-3.699999999999989e-02	7.962825e+00	2.107468e+00	1.201917e+02
-3.599999999999989e-02	7.901965e+00	2.168060e+00	1.227089e+02
-3.499999999999989e-02	7.839845e+00	2.229905e+00	1.252191e+02
-3.399999999999989e-02	7.776468e+00	2.293001e+00	1.277189e+02
-3.299999999999989e-02	7.711841e+00	2.357339e+00	1.302043e+02
-3.199999999999989e-02	7.645972e+00	2.422913e+00	1.326721e+02
-3.099999999999989e-02	7.578870e+00	2.489713e+00	1.351181e+02
-2.999999999999989e-02	7.510549e+00	2.557726e+00	1.375393e+02
-2.899999999999989e-02	7.441019e+00	2.626940e+00	1.399317e+02
-2.799999999999989e-02	7.370298e+00	2.697339e+00	1.422906e+02
-2.699999999999989e-02	7.298403e+00	2.768905e+00	1.446130e+02
-2.599999999999988e-02	7.225352e+00	2.841619e+00	1.468951e+02
-2.499999999999988e-02	7.151168e+00	2.915460e+00	1.491320e+02
-2.399999999999988e-02	7.075873e+00	2.990405e+00	1.513203e+02
-2.299999999999988e-02	6.999494e+00	3.066427e+00	1.534564e+02
-2.199999999999988e-02	6.922056e+00	3.143500e+00	1.555364e+02
-2.099999999999988e-02	6.843589e+00	3.221595e+00	1.575558e+02
-1.999999999999988e-02	6.764124e+00	3.300680e+00	1.595112e+02
-1.899999999999988e-02	6.683695e+00	3.380723e+00	1.613991e+02
-1.799999999999988e-02	6.602335e+00	3.461689e+00	1.632158e+02
-1.699999999999988e-02	6.520082e+00	3.543542e+00	1.649574e+02
-1.599999999999988e-02	6.436974e+00	3.626242e+00	1.666209e+02
-1.499999999999987e-02	6.353049e+00	3.709751e+00	1.682026e+02
-1.399999999999987e-02	6.268352e+00	3.794026e+00	1.696994e+02
-1.299999999999987e-02	6.182923e+00	3.879024e+00	1.711085e+02
-1.199999999999987e-02	6.096809e+00	3.964700e+00	1.724268e+02
-1.099999999999987e-02	6.010056e+00	4.051010e+00	1.736518e+02
-9.999999999999870e-03	5.922709e+00	4.137904e+00	1.747806e+02
-8.999999999999869e-03	5.834819e+00	4.225334e+00	1.758106e+02
-7.999999999999868e-03	5.746435e+00	4.313251e+00	1.767406e+02
-6.999999999999868e-03	5.657608e+00	4.401604e+00	1.775682e+02
-5.999999999999868e-03	5.568389e+00	4.490341e+00	1.782908e+02
-4.999999999999868e-03	5.478831e+00	4.579410e+00	1.789081e+02
-3.999999999999868e-03	5.388988e+00	4.668756e+00	1.794183e+02
-2.999999999999868e-03	5.298913e+00	4.758327e+00	1.798201e+02
-1.999999999999868e-03	5.208660e+00	4.848069e+00	1.801126e+02
-9.999999999998682e-04	5.118285e+00	4.937925e+00	1.802957e+02
1.318389841742373e-16	5.027842e+00	5.027842e+00	1.803689e+02
1.000000000000132e-03	4.937386e+00	5.117764e+00	1.803315e+02
2.000000000000132e-03	4.846973e+00	5.207636e+00	1.801839e+02
3.000000000000132e-03	4.756658e+00	5.297403e+00	1.799266e+02
4.000000000000132e-03	4.666494e+00	5.387011e+00	1.795604e+02
5.000000000000132e-03	4.576538e+00	5.476404e+00	1.790860e+02
6.000000000000132e-03	4.486842e+00	5.565530e+00	1.785038e+02
7.000000000000132e-03	4.397460e+00	5.654334e+00	1.778159e+02
8.000000000000132e-03	4.308444e+00	5.742764e+00	1.770234e+02
9.000000000000133e-03	4.219847e+00	5.830768e+00	1.761279e+02
1.000000000000013e-02	4.131720e+00	5.918295e+00	1.751316e+02
1.100000000000013e-02	4.044112e+00	6.005296e+00	1.740364e+02
1.200000000000014e-02	3.957072e+00	6.091721e+00	1.728452e+02
1.300000000000014e-02	3.870648e+00	6.177523e+00	1.715600e+02
1.400000000000014e-02	3.784886e+00	6.262655e+00	1.701837e+02
1.500000000000014e-02	3.699831e+00	6.347073e+00	1.687189e+02
1.600000000000014e-02	3.615527e+00	6.430733e+00	1.671690e+02
1.700000000000014e-02	3.532014e+00	6.513594e+00	1.655371e+02
1.800000000000014e-02	3.449335e+00	6.595615e+00	1.638260e+02
1.900000000000014e-02	3.367526e+00	6.676758e+00	1.620395e+02
2.000000000000014e-02	3.286625e+00	6.756985e+00	1.601813e+02
2.100000000000014e-02	3.206668e+00	6.836262e+00	1.582547e+02
2.200000000000014e-02	3.127687e+00	6.914556e+00	1.562636e+02
2.300000000000015e-02	3.049713e+00	6.991835e+00	1.542118e+02
2.400000000000015e-02	2.972777e+00	7.068069e+00	1.521031e+02
2.500000000000015e-02	2.896905e+00	7.143232e+00	1.499407e+02
2.600000000000015e-02	2.822123e+00	7.217298e+00	1.477292e+02
2.700000000000015e-02	2.748456e+00	7.290242e+00	1.454728e+02
2.800000000000015e-02	2.675924e+00	7.362044e+00	1.431748e+02
2.900000000000015e-02	2.604548e+00	7.432683e+00	1.408391e+02
3.000000000000015e-02	2.534344e+00	7.502142e+00	1.384698e+02
3.100000000000015e-02	2.465330e+00	7.570405e+00	1.360710e+02
3.200000000000015e-02	2.397519e+00	7.637459e+00	1.336462e+02
3.300000000000015e-02	2.330923e+00	7.703291e+00	1.311989e+02
3.400000000000016e-02	2.265553e+00	7.767890e+00	1.287332e+02
3.500000000000016e-02	2.201416e+00	7.831250e+00	1.262529e+02
3.600000000000016e-02	2.138519e+00	7.893363e+00	1.237612e+02
3.700000000000016e-02	2.076867e+00	7.954224e+00	1.212615e+02
3.800000000000016e-02	2.016464e+00	8.013830e+00	1.187573e+02
3.900000000000016e-02	1.957310e+00	8.072181e+00	1.162518e+02
4.000000000000016e-02	1.899405e+00	8.129275e+00	1.137486e+02
4.100000000000016e-02	1.842749e+00	8.185117e+00	1.112503e+02
4.200000000000016e-02	1.787336e+00	8.239707e+00	1.087592e+02
4.300000000000016e-02	1.733164e+00	8.293051e+00	1.062791e+02
4.400000000000016e-02	1.680226e+00	8.345155e+00	1.038128e+02
4.500000000000016e-02	1.628515e+00	8.396027e+00	1.013624e+02
4.600000000000017e-02	1.578021e+00	8.445675e+00	9.892976e+01
4.700000000000017e-02	1.528737e+00	8.494108e+00	9.651738e+01
4.800000000000017e-02	1.480650e+00	8.541338e+00	9.412819e+01
4.900000000000017e-02	1.433749e+00	8.587377e+00	9.176373e+01
5.000000000000017e-02	1.388021e+00	8.632236e+00	8.942586e+01
5.100000000000017e-02	1.343452e+00	8.675932e+00	8.711642e+01
5.200000000000017e-02	1.300029e+00	8.718477e+00	8.483714e+01
5.300000000000017e-02	1.257735e+00	8.759889e+00	8.258879e+01
5.400000000000017e-02	1.216554e+00	8.800180e+00	8.037299e+01
5.500000000000017e-02	1.176471e+00	8.839371e+00	7.819128e+01
5.600000000000017e-02	1.137467e+00	8.877476e+00	7.604527e+01
5.700000000000018e-02	1.099525e+00	8.914515e+00	7.393533e+01
5.800000000000018e-02	1.062627e+00	8.950506e+00	7.186151e+01
5.900000000000018e-02	1.026754e+00	8.985467e+00	6.982610e+01
6.000000000000018e-02	9.918862e-01	9.019418e+00	6.782934e+01
6.100000000000018e-02	9.580056e-01	9.052378e+00	6.587109e+01
6.200000000000018e-02	9.250921e-01	9.084366e+00	6.395257e+01
6.300000000000018e-02	8.931260e-01	9.115403e+00	6.207389e+01
6.400000000000018e-02	8.620872e-01	9.145509e+00	6.023473e+01
6.500000000000018e-02	8.319560e-01	9.174703e+00	5.843616e+01
6.600000000000018e-02	8.027120e-01	9.203006e+00	5.667824e+01
6.700000000000018e-02	7.743351e-01	9.230438e+00	5.496052e+01
6.800000000000019e-02	7.468051e-01	9.257020e+00	5.328292e+01
6.900000000000019e-02	7.201021e-01	9.282771e+00	5.164585e+01
7.000000000000019e-02	6.942060e-01	9.307713e+00	5.004838e+01
7.100000000000019e-02	6.690967e-01	9.331862e+00	4.849079e+01
7.200000000000019e-02	6.447546e-01	9.355243e+00	4.697341e+01
7.300000000000019e-02	6.211599e-01	9.377872e+00	4.549468e+01
7.400000000000019e-02	5.982932e-01	9.399771e+00	4.405484e+01
7.500000000000019e-02	5.761353e-01	9.420958e+00	4.265371e+01
7.600000000000019e-02	5.546671e-01	9.441452e+00	4.129013e+01
7.700000000000019e-02	5.338697e-01	9.461272e+00	3.996378e+01
7.800000000000019e-02	5.137248e-01	9.480437e+00	3.867492e+01
7.900000000000020e-02	4.942139e-01	9.498966e+00	3.742233e+01
8.000000000000020e-02	4.753191e-01	9.516876e+00	3.620471e+01
8.100000000000020e-02	4.570227e-01	9.534184e+00	3.502275e+01
8.200000000000020e-02	4.393074e-01	9.550910e+00	3.387563e+01
8.300000000000020e-02	4.221560e-01	9.567069e+00	3.276211e+01
8.400000000000020e-02	4.055519e-01	9.582679e+00	3.168185e+01
8.500000000000020e-02	3.894787e-01	9.597755e+00	3.063354e+01
8.600000000000020e-02	3.739203e-01	9.612314e+00	2.961782e+01
8.700000000000020e-02	3.588609e-01	9.626373e+00	2.863289e+01
8.800000000000020e-02	3.442853e-01	9.639945e+00	2.767843e+01
8.900000000000020e-02	3.301784e-01	9.653048e+00	2.675408e+01
9.000000000000020e-02	3.165254e-01	9.665693e+00	2.585806e+01
9.100000000000021e-02	3.033121e-01	9.677897e+00	2.499145e+01
9.200000000000021e-02	2.905245e-01	9.689675e+00	2.415201e+01
9.300000000000021e-02	2.781490e-01	9.701038e+00	2.333890e+01
9.400000000000021e-02	2.661723e-01	9.712001e+00	2.255271e+01
9.500000000000021e-02	2.545814e-01	9.722576e+00	2.179218e+01
9.600000000000021e-02	2.433637e-01	9.732777e+00	2.105649e+01
9.700000000000021e-02	2.325070e-01	9.742615e+00	2.034529e+01
9.800000000000021e-02	2.219993e-01	9.752103e+00	1.965729e+01
9.900000000000021e-02	2.118291e-01	9.761251e+00	1.899217e+01
1.000000000000002e-01	2.019851e-01	9.770073e+00	1.834960e+01
1.010000000000002e-01	1.924563e-01	9.778578e+00	1.772833e+01
1.020000000000002e-01	1.832320e-01	9.786777e+00	1.712803e+01
1.030000000000002e-01	1.743020e-01	9.794680e+00	1.654839e+01
1.040000000000002e-01	1.656563e-01	9.802298e+00	1.598863e+01
1.050000000000002e-01	1.572851e-01	9.809640e+00	1.544799e+01
1.060000000000002e-01	1.491789e-01	9.816716e+00	1.492616e+01
1.070000000000002e-01	1.413287e-01	9.823536e+00	1.442192e+01
1.080000000000002e-01	1.337256e-01	9.830107e+00	1.393499e+01
1.090000000000002e-01	1.263610e-01	9.836438e+00	1.346556e+01
1.100000000000002e-01	1.192266e-01	9.842539e+00	1.301242e+01
1.110000000000002e-01	1.123143e-01	9.848416e+00	1.257485e+01
1.120000000000002e-01	1.056164e-01	9.854078e+00	1.215257e+01
1.130000000000002e-01	9.912521e-02	9.859532e+00	1.174582e+01
1.140000000000002e-01	9.283353e-02	9.864787e+00	1.135293e+01
1.150000000000002e-01	8.673429e-02	9.869847e+00	1.097414e+01
1.160000000000002e-01	8.082063e-02	9.874722e+00	1.060923e+01
1.170000000000002e-01	7.508595e-02	9.879417e+00	1.025654e+01
1.180000000000002e-01	6.952386e-02	9.883939e+00	9.916808e+00
1.190000000000002e-01	6.412818e-02	9.888293e+00	9.589348e+00
1.200000000000002e-01	5.889294e-02	9.892487e+00	9.273956e+00
1.210000000000002e-01	5.381238e-02	9.896525e+00	8.969484e+00
1.220000000000002e-01	4.888092e-02	9.900414e+00	8.675734e+00
1.230000000000002e-01	4.409317e-02	9.904158e+00	8.392995e+00
1.240000000000002e-01	3.944394e-02	9.907763e+00	8.120138e+00
1.250000000000002e-01	3.492820e-02	9.911233e+00	7.857940e+00
1.260000000000002e-01	3.054111e-02	9.914576e+00	7.604797e+00
1.270000000000002e-01	2.627798e-02	9.917792e+00	7.360544e+00
1.280000000000002e-01	2.213430e-02	9.920890e+00	7.125976e+00
1.290000000000002e-01	1.810570e-02	9.923872e+00	6.899509e+00
1.300000000000002e-01	1.418798e-02	9.926743e+00	6.680990e+00
1.310000000000002e-01	1.037708e-02	9.929505e+00	6.470751e+00
1.320000000000002e-01	6.669070e-03	9.932165e+00	6.268653e+00
1.330000000000002e-01	3.060183e-03	9.934726e+00	6.073604e+00
1.340000000000002e-01	-4.532283e-04	9.937190e+00	5.885951e+00
1.350000000000002e-01	-3.874681e-03	9.939563e+00	5.705088e+00
1.360000000000002e-01	-7.207567e-03	9.941846e+00	5.530894e+00
1.370000000000002e-01	-1.045515e-02	9.944044e+00	5.363247e+00
1.380000000000002e-01	-1.362059e-02	9.946159e+00	5.201081e+00
1.390000000000002e-01	-1.670692e-02	9.948195e+00	5.045714e+00
1.400000000000002e-01	-1.971708e-02	9.950154e+00	4.896084e+00
1.410000000000002e-01	-2.265388e-02	9.952040e+00	4.751612e+00
1.420000000000002e-01	-2.552005e-02	9.953855e+00	4.612674e+00
1.430000000000002e-01	-2.831821e-02	9.955601e+00	4.479171e+00
1.440000000000002e-01	-3.105088e-02	9.957282e+00	4.350535e+00
1.450000000000002e-01	-3.372052e-02	9.958899e+00	4.226198e+00
1.460000000000002e-01	-3.632945e-02	9.960456e+00	4.106551e+00
1.470000000000002e-01	-3.887995e-02	9.961953e+00	3.991984e+00
1.480000000000002e-01	-4.137420e-02	9.963395e+00	3.881464e+00
1.490000000000002e-01	-4.381428e-02	9.964782e+00	3.774911e+00
1.500000000000000e-01	-4.620223e-02	9.966117e+00	3.723092e+00
