time	V(n002)	V(n003)
0.000000000000000e+00	1.091632e-02	0.000000e+00
1.554017402468966e-07	1.094278e-02	7.567251e-05
3.108034804937932e-07	1.103063e-02	1.513448e-04
4.662052207406898e-07	1.117989e-02	2.270168e-04
6.216069609875864e-07	1.139056e-02	3.026886e-04
7.770087012344829e-07	1.166263e-02	3.783602e-04
9.324104414813796e-07	1.199610e-02	4.540315e-04
1.087812181728276e-06	1.239097e-02	5.297026e-04
1.947892897170836e-06	1.494763e-02	9.484966e-04
2.850644594107700e-06	1.830485e-02	1.388038e-03
4.078601236964086e-06	2.356346e-02	1.985845e-03
5.395119726304131e-06	2.962054e-02	2.626634e-03
9.606511340997928e-06	4.986046e-02	4.675020e-03
2.858603257367530e-05	1.415227e-01	1.384516e-02
4.811728257367531e-05	2.339556e-01	2.307525e-02
6.764853257367531e-05	3.230340e-01	3.195827e-02
8.717978257367530e-05	4.074181e-01	4.036061e-02
1.067110325736753e-04	4.858384e-01	4.815588e-02
1.262422825736753e-04	5.571151e-01	5.522685e-02
1.457735325736753e-04	6.201763e-01	6.146715e-02
1.653047825736753e-04	6.740733e-01	6.678294e-02
1.848360325736753e-04	7.179955e-01	7.109424e-02
2.043672825736753e-04	7.512821e-01	7.433622e-02
2.238985325736754e-04	7.734327e-01	7.646011e-02
2.434297825736754e-04	7.841142e-01	7.743397e-02
2.629610325736754e-04	7.831660e-01	7.724316e-02
2.824922825736754e-04	7.706025e-01	7.589053e-02
3.020235325736754e-04	7.466128e-01	7.339644e-02
3.215547825736754e-04	7.115579e-01	6.979840e-02
3.410860325736755e-04	6.659649e-01	6.515053e-02
3.606172825736755e-04	6.105197e-01	5.952273e-02
3.801485325736755e-04	5.460563e-01	5.299965e-02
3.996797825736755e-04	4.735442e-01	4.567941e-02
4.192110325736755e-04	3.940739e-01	3.767211e-02
4.387422825736756e-04	3.088407e-01	2.909819e-02
4.582735325736756e-04	2.191262e-01	2.008660e-02
4.778047825736756e-04	1.262799e-01	1.077289e-02
4.973360325736756e-04	3.169801e-02	1.297150e-03
5.071016575736756e-04	-1.579965e-02	-3.456983e-03
5.266329075736756e-04	-1.103152e-01	-1.290837e-02
5.461641575736756e-04	-2.030077e-01	-2.216560e-02
5.656954075736756e-04	-2.924829e-01	-3.108944e-02
5.852266575736756e-04	-3.773948e-01	-3.954567e-02
6.047579075736756e-04	-4.564661e-01	-4.740709e-02
6.242891575736757e-04	-5.285074e-01	-5.455547e-02
6.438204075736757e-04	-5.924350e-01	-6.088328e-02
6.633516575736757e-04	-6.472873e-01	-6.629536e-02
6.828829075736757e-04	-6.922393e-01	-7.071028e-02
7.024141575736757e-04	-7.266148e-01	-7.406165e-02
7.219454075736758e-04	-7.498968e-01	-7.629908e-02
7.414766575736758e-04	-7.617354e-01	-7.738889e-02
7.610079075736758e-04	-7.619525e-01	-7.731470e-02
7.805391575736758e-04	-7.505450e-01	-7.607763e-02
8.000704075736758e-04	-7.276845e-01	-7.369628e-02
8.196016575736758e-04	-6.937151e-01	-7.020646e-02
8.391329075736759e-04	-6.491476e-01	-6.566069e-02
8.586641575736759e-04	-5.946526e-01	-6.012730e-02
8.781954075736759e-04	-5.310495e-01	-5.368955e-02
8.977266575736759e-04	-4.592951e-01	-4.644426e-02
9.172579075736759e-04	-3.804684e-01	-3.850040e-02
9.367891575736759e-04	-2.957550e-01	-2.997746e-02
9.563204075736760e-04	-2.064289e-01	-2.100364e-02
9.758516575736760e-04	-1.138334e-01	-1.171389e-02
9.953829075736759e-04	-1.936125e-02	-2.247963e-03
1.014914157573676e-03	7.556673e-02	7.251778e-03
1.034445407573676e-03	1.695227e-01	1.664245e-02
1.053976657573676e-03	2.610934e-01	2.578280e-02
1.073507907573676e-03	3.489015e-01	3.453535e-02
1.093039157573676e-03	4.316259e-01	4.276846e-02
1.112570407573676e-03	5.080225e-01	5.035829e-02
1.132101657573676e-03	5.769418e-01	5.719069e-02
1.151632907573676e-03	6.373473e-01	6.316288e-02
1.171164157573676e-03	6.883304e-01	6.818505e-02
1.190695407573676e-03	7.291241e-01	7.218165e-02
1.210226657573676e-03	7.591150e-01	7.509257e-02
1.229757907573676e-03	7.778521e-01	7.687403e-02
1.249289157573676e-03	7.850536e-01	7.749923e-02
1.268820407573676e-03	7.806113e-01	7.695877e-02
1.288351657573676e-03	7.645922e-01	7.526078e-02
1.307882907573676e-03	7.372373e-01	7.243080e-02
1.327414157573676e-03	6.989582e-01	6.851139e-02
1.346945407573676e-03	6.503306e-01	6.356150e-02
1.366476657573676e-03	5.920860e-01	5.765560e-02
1.386007907573676e-03	5.251004e-01	5.088249e-02
1.405539157573676e-03	4.503812e-01	4.334407e-02
1.425070407573676e-03	3.690523e-01	3.515371e-02
1.444601657573676e-03	2.823366e-01	2.643461e-02
1.464132907573676e-03	1.915384e-01	1.731791e-02
1.483664157573676e-03	9.802315e-02	7.940727e-03
1.503195407573676e-03	3.197370e-03	-1.555889e-03
1.522726657573676e-03	-9.151272e-02	-1.102910e-02
1.542257907573676e-03	-1.846826e-01	-2.033643e-02
1.561789157573676e-03	-2.749107e-01	-2.933788e-02
1.581320407573676e-03	-3.608400e-01	-3.789806e-02
1.600851657573676e-03	-4.411776e-01	-4.588821e-02
1.620382907573676e-03	-5.147153e-01	-5.318817e-02
1.639914157573676e-03	-5.803466e-01	-5.968812e-02
1.659445407573676e-03	-6.370845e-01	-6.529032e-02
1.678976657573676e-03	-6.840756e-01	-6.991047e-02
1.698507907573677e-03	-7.206129e-01	-7.347912e-02
1.718039157573677e-03	-7.461472e-01	-7.594258e-02
1.737570407573677e-03	-7.602942e-01	-7.726377e-02
1.757101657573677e-03	-7.628415e-01	-7.742286e-02
1.776632907573677e-03	-7.537507e-01	-7.641743e-02
1.796164157573677e-03	-7.331588e-01	-7.426262e-02
1.815695407573677e-03	-7.013755e-01	-7.099082e-02
1.835226657573677e-03	-6.588790e-01	-6.665125e-02
1.854757907573677e-03	-6.063085e-01	-6.130920e-02
1.874289157573677e-03	-5.444547e-01	-5.504499e-02
1.893820407573677e-03	-4.742479e-01	-4.795285e-02
1.913351657573677e-03	-3.967440e-01	-4.013946e-02
1.932882907573677e-03	-3.131086e-01	-3.172233e-02
1.952414157573677e-03	-2.245995e-01	-2.282807e-02
1.971945407573676e-03	-1.325478e-01	-1.359046e-02
1.991476657573676e-03	-3.833786e-02	-4.148431e-03
2.011007907573675e-03	5.661327e-02	5.355993e-03
2.030539157573675e-03	1.508775e-01	1.477986e-02
2.050070407573675e-03	2.430369e-01	2.398142e-02
2.069601657573674e-03	3.317052e-01	3.282228e-02
2.089132907573674e-03	4.155487e-01	4.116946e-02
2.108664157573673e-03	4.933061e-01	4.889742e-02
2.128195407573673e-03	5.638076e-01	5.588991e-02
2.147726657573673e-03	6.259929e-01	6.204177e-02
2.167257907573672e-03	6.789265e-01	6.726046e-02
2.186789157573672e-03	7.218122e-01	7.146749e-02
2.206320407573671e-03	7.540051e-01	7.459958e-02
2.225851657573671e-03	7.750210e-01	7.660963e-02
2.245382907573670e-03	7.845439e-01	7.746739e-02
2.264914157573670e-03	7.824306e-01	7.715998e-02
2.284445407573670e-03	7.687131e-01	7.569200e-02
2.303976657573669e-03	7.435979e-01	7.308555e-02
2.323507907573669e-03	7.074627e-01	6.937982e-02
2.343039157573668e-03	6.608511e-01	6.463056e-02
2.362570407573668e-03	6.044642e-01	5.890919e-02
2.382101657573668e-03	5.391502e-01	5.230177e-02
2.401632907573667e-03	4.658914e-01	4.490769e-02
2.421164157573667e-03	3.857894e-01	3.683815e-02
2.440695407573666e-03	3.000491e-01	2.821453e-02
2.460226657573666e-03	2.099598e-01	1.916654e-02
2.479757907573665e-03	1.168765e-01	9.830271e-03
2.499289157573665e-03	2.219902e-02	3.461413e-04
2.518820407573665e-03	-7.264853e-02	-9.143194e-03
2.538351657573664e-03	-1.662396e-01	-1.849501e-02
2.557882907573664e-03	-2.571664e-01	-2.756864e-02
2.577414157573663e-03	-3.440612e-01	-3.622761e-02
2.596945407573663e-03	-4.256168e-01	-4.434169e-02
2.616476657573663e-03	-5.006064e-01	-5.178883e-02
2.636007907573662e-03	-5.679021e-01	-5.845701e-02
2.655539157573662e-03	-6.264914e-01	-6.424595e-02
2.675070407573661e-03	-6.754932e-01	-6.906857e-02
2.694601657573661e-03	-7.141705e-01	-7.285233e-02
2.714132907573660e-03	-7.419415e-01	-7.554032e-02
2.733664157573660e-03	-7.583885e-01	-7.709212e-02
2.753195407573660e-03	-7.632644e-01	-7.748438e-02
2.772726657573659e-03	-7.564959e-01	-7.671121e-02
2.792257907573659e-03	-7.381849e-01	-7.478422e-02
2.811789157573658e-03	-7.086069e-01	-7.173241e-02
2.831320407573658e-03	-6.682069e-01	-6.760168e-02
2.850851657573658e-03	-6.175927e-01	-6.245416e-02
2.870382907573657e-03	-5.575254e-01	-5.636727e-02
2.889914157573657e-03	-4.889085e-01	-4.943256e-02
2.909445407573656e-03	-4.127741e-01	-4.175434e-02
2.928976657573656e-03	-3.302670e-01	-3.344810e-02
2.948507907573656e-03	-2.426282e-01	-2.463876e-02
2.968039157573655e-03	-1.511756e-01	-1.545884e-02
2.987570407573655e-03	-5.728478e-02	-6.046400e-03
2.997336032573654e-03	-9.865392e-03	-1.297150e-03
3.016867282573654e-03	8.502957e-02	8.198104e-03
3.036398532573654e-03	1.788102e-01	1.757005e-02
3.055929782573653e-03	2.700659e-01	2.667773e-02
3.075461032573653e-03	3.574239e-01	3.538414e-02
3.094992282573652e-03	4.395701e-01	4.355836e-02
3.114523532573652e-03	5.152689e-01	5.107740e-02
3.134054782573652e-03	5.833815e-01	5.782820e-02
3.153586032573651e-03	6.428835e-01	6.370921e-02
3.173117282573651e-03	6.928796e-01	6.863197e-02
3.192648532573650e-03	7.326181e-01	7.252245e-02
3.212179782573650e-03	7.615011e-01	7.532211e-02
3.231711032573649e-03	7.790945e-01	7.698887e-02
3.251242282573649e-03	7.851336e-01	7.749764e-02
3.270773532573649e-03	7.795278e-01	7.684077e-02
3.290304782573648e-03	7.623614e-01	7.502815e-02
3.309836032573648e-03	7.338928e-01	7.208703e-02
3.329367282573647e-03	6.945502e-01	6.806166e-02
3.348898532573647e-03	6.449255e-01	6.301258e-02
3.368429782573647e-03	5.857651e-01	5.701572e-02
3.387961032573646e-03	5.179588e-01	5.016130e-02
3.407492282573646e-03	4.425263e-01	4.255241e-02
3.427023532573645e-03	3.606021e-01	3.430349e-02
3.446554782573645e-03	2.734184e-01	2.553861e-02
3.466086032573644e-03	1.822862e-01	1.638961e-02
3.485617282573644e-03	8.857609e-02	6.994091e-03
3.514914157573643e-03	-5.373403e-02	-7.251778e-03
3.534445407573643e-03	-1.476899e-01	-1.664245e-02
3.553976657573643e-03	-2.392606e-01	-2.578280e-02
3.573507907573642e-03	-3.270685e-01	-3.453535e-02
3.593039157573642e-03	-4.097930e-01	-4.276846e-02
3.612570407573641e-03	-4.861895e-01	-5.035829e-02
3.632101657573641e-03	-5.551088e-01	-5.719069e-02
3.651632907573641e-03	-6.155143e-01	-6.316288e-02
3.671164157573640e-03	-6.664975e-01	-6.818505e-02
3.690695407573640e-03	-7.072912e-01	-7.218165e-02
3.710226657573639e-03	-7.372822e-01	-7.509257e-02
3.729757907573639e-03	-7.560194e-01	-7.687403e-02
3.749289157573638e-03	-7.632209e-01	-7.749923e-02
3.768820407573638e-03	-7.587788e-01	-7.695877e-02
3.788351657573638e-03	-7.427597e-01	-7.526078e-02
3.807882907573637e-03	-7.154049e-01	-7.243080e-02
3.827414157573637e-03	-6.771258e-01	-6.851139e-02
3.846945407573636e-03	-6.284983e-01	-6.356150e-02
3.866476657573636e-03	-5.702537e-01	-5.765560e-02
3.886007907573636e-03	-5.032681e-01	-5.088249e-02
3.905539157573635e-03	-4.285489e-01	-4.334407e-02
3.925070407573635e-03	-3.472199e-01	-3.515371e-02
3.944601657573634e-03	-2.605042e-01	-2.643461e-02
3.964132907573634e-03	-1.697059e-01	-1.731791e-02
3.983664157573633e-03	-7.619059e-02	-7.940727e-03
4.003195407573633e-03	1.863527e-02	1.555889e-03
4.022726657573633e-03	1.133455e-01	1.102910e-02
4.042257907573632e-03	2.065154e-01	2.033643e-02
4.061789157573632e-03	2.967436e-01	2.933788e-02
4.081320407573631e-03	3.826729e-01	3.789806e-02
4.100851657573631e-03	4.630106e-01	4.588821e-02
4.120382907573631e-03	5.365482e-01	5.318817e-02
4.139914157573630e-03	6.021796e-01	5.968812e-02
4.159445407573630e-03	6.589175e-01	6.529032e-02
4.178976657573629e-03	7.059085e-01	6.991047e-02
4.198507907573629e-03	7.424458e-01	7.347912e-02
4.218039157573628e-03	7.679799e-01	7.594258e-02
4.237570407573628e-03	7.821270e-01	7.726377e-02
4.257101657573628e-03	7.846742e-01	7.742286e-02
4.276632907573627e-03	7.755833e-01	7.641743e-02
4.296164157573627e-03	7.549913e-01	7.426262e-02
4.315695407573626e-03	7.232080e-01	7.099082e-02
4.335226657573626e-03	6.807114e-01	6.665125e-02
4.354757907573626e-03	6.281409e-01	6.130920e-02
4.374289157573625e-03	5.662870e-01	5.504499e-02
4.393820407573625e-03	4.960802e-01	4.795285e-02
4.413351657573624e-03	4.185764e-01	4.013946e-02
4.432882907573624e-03	3.349410e-01	3.172233e-02
4.452414157573623e-03	2.464319e-01	2.282807e-02
4.471945407573623e-03	1.543803e-01	1.359046e-02
4.491476657573623e-03	6.017045e-02	4.148431e-03
4.511007907573622e-03	-3.478059e-02	-5.355993e-03
4.530539157573622e-03	-1.290447e-01	-1.477986e-02
4.550070407573621e-03	-2.212041e-01	-2.398142e-02
4.569601657573621e-03	-3.098723e-01	-3.282228e-02
4.589132907573621e-03	-3.937157e-01	-4.116946e-02
4.608664157573620e-03	-4.714731e-01	-4.889742e-02
4.628195407573620e-03	-5.419747e-01	-5.588991e-02
4.647726657573619e-03	-6.041600e-01	-6.204177e-02
4.667257907573619e-03	-6.570936e-01	-6.726046e-02
4.686789157573618e-03	-6.999794e-01	-7.146749e-02
4.706320407573618e-03	-7.321723e-01	-7.459958e-02
4.725851657573618e-03	-7.531883e-01	-7.660963e-02
4.745382907573617e-03	-7.627112e-01	-7.746739e-02
4.764914157573617e-03	-7.605980e-01	-7.715998e-02
4.784445407573616e-03	-7.468806e-01	-7.569200e-02
4.803976657573616e-03	-7.217654e-01	-7.308555e-02
4.823507907573616e-03	-6.856302e-01	-6.937982e-02
4.843039157573615e-03	-6.390187e-01	-6.463056e-02
4.862570407573615e-03	-5.826319e-01	-5.890919e-02
4.882101657573614e-03	-5.173179e-01	-5.230177e-02
4.901632907573614e-03	-4.440590e-01	-4.490769e-02
4.921164157573613e-03	-3.639571e-01	-3.683815e-02
4.940695407573613e-03	-2.782167e-01	-2.821453e-02
4.960226657573613e-03	-1.881273e-01	-1.916654e-02
4.979757907573612e-03	-9.504393e-02	-9.830271e-03
4.999289157573612e-03	-3.663970e-04	-3.461413e-04
5.018820407573611e-03	9.448125e-02	9.143194e-03
5.038351657573611e-03	1.880724e-01	1.849501e-02
5.057882907573611e-03	2.789993e-01	2.756864e-02
5.077414157573610e-03	3.658941e-01	3.622761e-02
5.096945407573610e-03	4.474497e-01	4.434169e-02
5.116476657573609e-03	5.224394e-01	5.178883e-02
5.136007907573609e-03	5.897350e-01	5.845701e-02
5.155539157573608e-03	6.483244e-01	6.424595e-02
5.175070407573608e-03	6.973262e-01	6.906857e-02
5.194601657573608e-03	7.360033e-01	7.285233e-02
5.214132907573607e-03	7.637743e-01	7.554032e-02
5.233664157573607e-03	7.802212e-01	7.709212e-02
5.253195407573606e-03	7.850971e-01	7.748438e-02
5.272726657573606e-03	7.783284e-01	7.671121e-02
5.292257907573606e-03	7.600174e-01	7.478422e-02
5.311789157573605e-03	7.304394e-01	7.173241e-02
5.331320407573605e-03	6.900393e-01	6.760168e-02
5.350851657573604e-03	6.394250e-01	6.245416e-02
5.370382907573604e-03	5.793577e-01	5.636727e-02
5.389914157573603e-03	5.107408e-01	4.943256e-02
5.409445407573603e-03	4.346064e-01	4.175434e-02
5.428976657573603e-03	3.520994e-01	3.344810e-02
5.448507907573602e-03	2.644606e-01	2.463876e-02
5.468039157573602e-03	1.730081e-01	1.545884e-02
5.487570407573601e-03	7.911734e-02	6.046400e-03
5.516867282573601e-03	-6.319686e-02	-8.198104e-03
5.536398532573600e-03	-1.569774e-01	-1.757005e-02
5.555929782573600e-03	-2.482330e-01	-2.667773e-02
5.575461032573600e-03	-3.355910e-01	-3.538414e-02
5.594992282573599e-03	-4.177372e-01	-4.355836e-02
5.614523532573599e-03	-4.934359e-01	-5.107740e-02
5.634054782573598e-03	-5.615486e-01	-5.782820e-02
5.653586032573598e-03	-6.210505e-01	-6.370921e-02
5.673117282573597e-03	-6.710467e-01	-6.863197e-02
5.692648532573597e-03	-7.107852e-01	-7.252245e-02
5.712179782573597e-03	-7.396684e-01	-7.532211e-02
5.731711032573596e-03	-7.572618e-01	-7.698887e-02
5.751242282573596e-03	-7.633010e-01	-7.749764e-02
5.770773532573595e-03	-7.576952e-01	-7.684077e-02
5.790304782573595e-03	-7.405288e-01	-7.502815e-02
5.809836032573595e-03	-7.120603e-01	-7.208703e-02
5.829367282573594e-03	-6.727179e-01	-6.806166e-02
5.848898532573594e-03	-6.230932e-01	-6.301258e-02
5.868429782573593e-03	-5.639328e-01	-5.701572e-02
5.887961032573593e-03	-4.961265e-01	-5.016130e-02
5.907492282573592e-03	-4.206940e-01	-4.255241e-02
5.927023532573592e-03	-3.387698e-01	-3.430349e-02
5.946554782573592e-03	-2.515860e-01	-2.553861e-02
5.966086032573591e-03	-1.604537e-01	-1.638961e-02
5.985617282573591e-03	-6.674354e-02	-6.994091e-03
6.014914157573590e-03	7.556673e-02	7.251778e-03
6.034445407573590e-03	1.695227e-01	1.664245e-02
6.053976657573589e-03	2.610934e-01	2.578280e-02
6.073507907573589e-03	3.489015e-01	3.453535e-02
6.093039157573588e-03	4.316259e-01	4.276846e-02
6.112570407573588e-03	5.080225e-01	5.035829e-02
6.132101657573588e-03	5.769418e-01	5.719069e-02
6.151632907573587e-03	6.373473e-01	6.316288e-02
6.171164157573587e-03	6.883304e-01	6.818505e-02
6.190695407573586e-03	7.291241e-01	7.218165e-02
6.210226657573586e-03	7.591150e-01	7.509257e-02
6.229757907573586e-03	7.778521e-01	7.687403e-02
6.249289157573585e-03	7.850536e-01	7.749923e-02
6.268820407573585e-03	7.806113e-01	7.695877e-02
6.288351657573584e-03	7.645922e-01	7.526078e-02
6.307882907573584e-03	7.372373e-01	7.243080e-02
6.327414157573583e-03	6.989582e-01	6.851139e-02
6.346945407573583e-03	6.503306e-01	6.356150e-02
6.366476657573583e-03	5.920860e-01	5.765560e-02
6.386007907573582e-03	5.251004e-01	5.088249e-02
6.405539157573582e-03	4.503812e-01	4.334407e-02
6.425070407573581e-03	3.690523e-01	3.515371e-02
6.444601657573581e-03	2.823366e-01	2.643461e-02
6.464132907573581e-03	1.915384e-01	1.731791e-02
6.483664157573580e-03	9.802315e-02	7.940727e-03
6.503195407573580e-03	3.197370e-03	-1.555889e-03
6.522726657573579e-03	-9.151272e-02	-1.102910e-02
6.542257907573579e-03	-1.846826e-01	-2.033643e-02
6.561789157573578e-03	-2.749107e-01	-2.933788e-02
6.581320407573578e-03	-3.608400e-01	-3.789806e-02
6.600851657573578e-03	-4.411776e-01	-4.588821e-02
6.620382907573577e-03	-5.147153e-01	-5.318817e-02
6.639914157573577e-03	-5.803466e-01	-5.968812e-02
6.659445407573576e-03	-6.370845e-01	-6.529032e-02
6.678976657573576e-03	-6.840756e-01	-6.991047e-02
6.698507907573576e-03	-7.206129e-01	-7.347912e-02
6.718039157573575e-03	-7.461472e-01	-7.594258e-02
6.737570407573575e-03	-7.602942e-01	-7.726377e-02
6.757101657573574e-03	-7.628415e-01	-7.742286e-02
6.776632907573574e-03	-7.537507e-01	-7.641743e-02
6.796164157573573e-03	-7.331588e-01	-7.426262e-02
6.815695407573573e-03	-7.013755e-01	-7.099082e-02
6.835226657573573e-03	-6.588790e-01	-6.665125e-02
6.854757907573572e-03	-6.063085e-01	-6.130920e-02
6.874289157573572e-03	-5.444547e-01	-5.504499e-02
6.893820407573571e-03	-4.742479e-01	-4.795285e-02
6.913351657573571e-03	-3.967440e-01	-4.013946e-02
6.932882907573571e-03	-3.131086e-01	-3.172233e-02
6.952414157573570e-03	-2.245995e-01	-2.282807e-02
6.971945407573570e-03	-1.325478e-01	-1.359046e-02
6.991476657573569e-03	-3.833786e-02	-4.148431e-03
7.011007907573569e-03	5.661327e-02	5.355993e-03
7.030539157573568e-03	1.508775e-01	1.477986e-02
7.050070407573568e-03	2.430369e-01	2.398142e-02
7.069601657573568e-03	3.317052e-01	3.282228e-02
7.089132907573567e-03	4.155487e-01	4.116946e-02
7.108664157573567e-03	4.933061e-01	4.889742e-02
7.128195407573566e-03	5.638076e-01	5.588991e-02
7.147726657573566e-03	6.259929e-01	6.204177e-02
7.167257907573566e-03	6.789265e-01	6.726046e-02
7.186789157573565e-03	7.218122e-01	7.146749e-02
7.206320407573565e-03	7.540051e-01	7.459958e-02
7.225851657573564e-03	7.750210e-01	7.660963e-02
7.245382907573564e-03	7.845439e-01	7.746739e-02
7.264914157573563e-03	7.824306e-01	7.715998e-02
7.284445407573563e-03	7.687131e-01	7.569200e-02
7.303976657573563e-03	7.435979e-01	7.308555e-02
7.323507907573562e-03	7.074627e-01	6.937982e-02
7.343039157573562e-03	6.608511e-01	6.463056e-02
7.362570407573561e-03	6.044642e-01	5.890919e-02
7.382101657573561e-03	5.391502e-01	5.230177e-02
7.401632907573561e-03	4.658914e-01	4.490769e-02
7.421164157573560e-03	3.857894e-01	3.683815e-02
7.440695407573560e-03	3.000491e-01	2.821453e-02
7.460226657573559e-03	2.099598e-01	1.916654e-02
7.479757907573559e-03	1.168765e-01	9.830271e-03
7.499289157573558e-03	2.219902e-02	3.461413e-04
7.518820407573558e-03	-7.264853e-02	-9.143194e-03
7.538351657573558e-03	-1.662396e-01	-1.849501e-02
7.557882907573557e-03	-2.571664e-01	-2.756864e-02
7.577414157573557e-03	-3.440612e-01	-3.622761e-02
7.596945407573556e-03	-4.256168e-01	-4.434169e-02
7.616476657573556e-03	-5.006064e-01	-5.178883e-02
7.636007907573556e-03	-5.679021e-01	-5.845701e-02
7.655539157573555e-03	-6.264914e-01	-6.424595e-02
7.675070407573555e-03	-6.754932e-01	-6.906857e-02
7.694601657573554e-03	-7.141705e-01	-7.285233e-02
7.714132907573554e-03	-7.419415e-01	-7.554032e-02
7.733664157573554e-03	-7.583885e-01	-7.709212e-02
